Time [s],Packet ID,Address,Data,Read/Write,ACK/NAK
0.026399500000000,0,0xD2,0x2D,Write,ACK
0.026453500000000,1,0xD3,0xFF,Read,ACK
0.026479500000000,1,0xD3,0x73,Read,ACK
0.026505000000000,1,0xD3,0xF7,Read,ACK
0.026530500000000,1,0xD3,0xB9,Read,ACK
0.026556000000000,1,0xD3,0xFE,Read,ACK
0.026581500000000,1,0xD3,0x4A,Read,ACK
0.026607500000000,1,0xD3,0xFF,Read,ACK
0.026633000000000,1,0xD3,0x79,Read,ACK
0.026658500000000,1,0xD3,0xFF,Read,ACK
0.026684000000000,1,0xD3,0x7D,Read,ACK
0.026710000000000,1,0xD3,0x00,Read,ACK
0.026735500000000,1,0xD3,0x67,Read,ACK
0.026761000000000,1,0xD3,0x0E,Read,ACK
0.026786500000000,1,0xD3,0x20,Read,ACK
0.026812500000000,1,0xD3,0x98,Read,ACK
0.026838000000000,1,0xD3,0x00,Read,ACK
0.026863500000000,1,0xD3,0xA4,Read,ACK
0.026889000000000,1,0xD3,0xFE,Read,ACK
0.026914500000000,1,0xD3,0x42,Read,ACK
0.026940500000000,1,0xD3,0xFF,Read,NAK
0.127432500000000,2,0xD2,0x2D,Write,ACK
0.127486500000000,3,0xD3,0xFE,Read,ACK
0.127512500000000,3,0xD3,0xDF,Read,ACK
0.127538000000000,3,0xD3,0xF9,Read,ACK
0.127563500000000,3,0xD3,0x53,Read,ACK
0.127589000000000,3,0xD3,0xFE,Read,ACK
0.127614500000000,3,0xD3,0x2E,Read,ACK
0.127640500000000,3,0xD3,0xFB,Read,ACK
0.127666000000000,3,0xD3,0xDF,Read,ACK
0.127691500000000,3,0xD3,0x00,Read,ACK
0.127717000000000,3,0xD3,0x94,Read,ACK
0.127742500000000,3,0xD3,0x01,Read,ACK
0.127768500000000,3,0xD3,0xE4,Read,ACK
0.127794000000000,3,0xD3,0x0E,Read,ACK
0.127819500000000,3,0xD3,0x70,Read,ACK
0.127845000000000,3,0xD3,0x9E,Read,ACK
0.127871000000000,3,0xD3,0x00,Read,ACK
0.127896500000000,3,0xD3,0xB7,Read,ACK
0.127922000000000,3,0xD3,0xFE,Read,ACK
0.127947500000000,3,0xD3,0x35,Read,ACK
0.127973000000000,3,0xD3,0xFF,Read,NAK
0.228465500000000,4,0xD2,0x2D,Write,ACK
0.228520000000000,5,0xD3,0xFE,Read,ACK
0.228545500000000,5,0xD3,0x20,Read,ACK
0.228571000000000,5,0xD3,0xF7,Read,ACK
0.228596500000000,5,0xD3,0x5C,Read,ACK
0.228622500000000,5,0xD3,0xFD,Read,ACK
0.228648000000000,5,0xD3,0xC4,Read,ACK
0.228673500000000,5,0xD3,0x01,Read,ACK
0.228699000000000,5,0xD3,0x3E,Read,ACK
0.228724500000000,5,0xD3,0xFF,Read,ACK
0.228750500000000,5,0xD3,0x9B,Read,ACK
0.228776000000000,5,0xD3,0x00,Read,ACK
0.228801500000000,5,0xD3,0xEC,Read,ACK
0.228827000000000,5,0xD3,0x0E,Read,ACK
0.228852500000000,5,0xD3,0x70,Read,ACK
0.228878500000000,5,0xD3,0xA1,Read,ACK
0.228904000000000,5,0xD3,0x00,Read,ACK
0.228929500000000,5,0xD3,0xBB,Read,ACK
0.228955000000000,5,0xD3,0xFE,Read,ACK
0.228981000000000,5,0xD3,0x24,Read,ACK
0.229006500000000,5,0xD3,0xFF,Read,NAK
0.329498500000000,6,0xD2,0x2D,Write,ACK
0.329553000000000,7,0xD3,0xFE,Read,ACK
0.329578500000000,7,0xD3,0xCA,Read,ACK
0.329604000000000,7,0xD3,0xF9,Read,ACK
0.329629500000000,7,0xD3,0x65,Read,ACK
0.329655000000000,7,0xD3,0xFE,Read,ACK
0.329681000000000,7,0xD3,0xB1,Read,ACK
0.329706500000000,7,0xD3,0xFF,Read,ACK
0.329732000000000,7,0xD3,0xA8,Read,ACK
0.329757500000000,7,0xD3,0xFF,Read,ACK
0.329783000000000,7,0xD3,0x9D,Read,ACK
0.329809000000000,7,0xD3,0x00,Read,ACK
0.329834500000000,7,0xD3,0x9A,Read,ACK
0.329860000000000,7,0xD3,0x0E,Read,ACK
0.329885500000000,7,0xD3,0x10,Read,ACK
0.329911000000000,7,0xD3,0xBA,Read,ACK
0.329936500000000,7,0xD3,0x00,Read,ACK
0.329962500000000,7,0xD3,0xC2,Read,ACK
0.329988000000000,7,0xD3,0xFE,Read,ACK
0.330013500000000,7,0xD3,0x25,Read,ACK
0.330039000000000,7,0xD3,0xFF,Read,NAK
0.430532000000000,8,0xD2,0x2D,Write,ACK
0.430586000000000,9,0xD3,0xFE,Read,ACK
0.430611500000000,9,0xD3,0x4D,Read,ACK
0.430637000000000,9,0xD3,0xF8,Read,ACK
0.430662500000000,9,0xD3,0xB6,Read,ACK
0.430688000000000,9,0xD3,0xFD,Read,ACK
0.430714000000000,9,0xD3,0x67,Read,ACK
0.430739500000000,9,0xD3,0x00,Read,ACK
0.430765000000000,9,0xD3,0x36,Read,ACK
0.430790500000000,9,0xD3,0x00,Read,ACK
0.430816500000000,9,0xD3,0x19,Read,ACK
0.430842000000000,9,0xD3,0x00,Read,ACK
0.430867500000000,9,0xD3,0x48,Read,ACK
0.430893000000000,9,0xD3,0x0E,Read,ACK
0.430918500000000,9,0xD3,0x50,Read,ACK
0.430944500000000,9,0xD3,0xA8,Read,ACK
0.430970000000000,9,0xD3,0x00,Read,ACK
0.430995500000000,9,0xD3,0xBF,Read,ACK
0.431021000000000,9,0xD3,0xFE,Read,ACK
0.431047000000000,9,0xD3,0x25,Read,ACK
0.431072500000000,9,0xD3,0xFF,Read,NAK
0.531565000000000,10,0xD2,0x2D,Write,ACK
0.531619000000000,11,0xD3,0xFE,Read,ACK
0.531644500000000,11,0xD3,0x4C,Read,ACK
0.531670000000000,11,0xD3,0xF8,Read,ACK
0.531695500000000,11,0xD3,0x8D,Read,ACK
0.531721000000000,11,0xD3,0xFE,Read,ACK
0.531746500000000,11,0xD3,0x94,Read,ACK
0.531772500000000,11,0xD3,0x00,Read,ACK
0.531798000000000,11,0xD3,0x84,Read,ACK
0.531823500000000,11,0xD3,0x00,Read,ACK
0.531849000000000,11,0xD3,0x37,Read,ACK
0.531875000000000,11,0xD3,0x00,Read,ACK
0.531900500000000,11,0xD3,0x34,Read,ACK
0.531926000000000,11,0xD3,0x0E,Read,ACK
0.531951500000000,11,0xD3,0x50,Read,ACK
0.531977000000000,11,0xD3,0xAE,Read,ACK
0.532003000000000,11,0xD3,0x00,Read,ACK
0.532028500000000,11,0xD3,0xC0,Read,ACK
0.532054000000000,11,0xD3,0xFE,Read,ACK
0.532079500000000,11,0xD3,0x24,Read,ACK
0.532105500000000,11,0xD3,0xFF,Read,NAK
0.632598000000000,12,0xD2,0x2D,Write,ACK
0.632652000000000,13,0xD3,0xFE,Read,ACK
0.632677500000000,13,0xD3,0x50,Read,ACK
0.632703000000000,13,0xD3,0xF8,Read,ACK
0.632729000000000,13,0xD3,0x58,Read,ACK
0.632754500000000,13,0xD3,0xFE,Read,ACK
0.632780000000000,13,0xD3,0x61,Read,ACK
0.632805500000000,13,0xD3,0x00,Read,ACK
0.632831000000000,13,0xD3,0x22,Read,ACK
0.632857000000000,13,0xD3,0x00,Read,ACK
0.632882500000000,13,0xD3,0x2F,Read,ACK
0.632908000000000,13,0xD3,0xFF,Read,ACK
0.632933500000000,13,0xD3,0xFB,Read,ACK
0.632959500000000,13,0xD3,0x0E,Read,ACK
0.632985000000000,13,0xD3,0x50,Read,ACK
0.633010500000000,13,0xD3,0xBB,Read,ACK
0.633036000000000,13,0xD3,0x00,Read,ACK
0.633062000000000,13,0xD3,0xBE,Read,ACK
0.633087500000000,13,0xD3,0xFE,Read,ACK
0.633113000000000,13,0xD3,0x28,Read,ACK
0.633138500000000,13,0xD3,0xFF,Read,NAK
0.733631000000000,14,0xD2,0x2D,Write,ACK
0.733685000000000,15,0xD3,0xFE,Read,ACK
0.733710500000000,15,0xD3,0x56,Read,ACK
0.733736000000000,15,0xD3,0xF8,Read,ACK
0.733761500000000,15,0xD3,0x68,Read,ACK
0.733787500000000,15,0xD3,0xFD,Read,ACK
0.733813000000000,15,0xD3,0xFD,Read,ACK
0.733838500000000,15,0xD3,0x00,Read,ACK
0.733864000000000,15,0xD3,0xA7,Read,ACK
0.733889500000000,15,0xD3,0xFF,Read,ACK
0.733915000000000,15,0xD3,0xFF,Read,ACK
0.733940500000000,15,0xD3,0x00,Read,ACK
0.733966500000000,15,0xD3,0x2F,Read,ACK
0.733992000000000,15,0xD3,0x0E,Read,ACK
0.734017500000000,15,0xD3,0x50,Read,ACK
0.734043000000000,15,0xD3,0xB3,Read,ACK
0.734068500000000,15,0xD3,0x00,Read,ACK
0.734094000000000,15,0xD3,0xB9,Read,ACK
0.734120000000000,15,0xD3,0xFE,Read,ACK
0.734145500000000,15,0xD3,0x24,Read,ACK
0.734171000000000,15,0xD3,0xFF,Read,NAK
1.534234000000000,16,0xD2,0x7F,Write,ACK
1.534259500000000,16,0xD2,0x00,Write,ACK
1.544324500000000,17,0xD2,0x7F,Write,ACK
1.544378500000000,18,0xD3,0x00,Read,NAK
1.544511500000000,19,0xD2,0x06,Write,ACK
1.544537000000000,19,0xD2,0x01,Write,ACK
1.554315500000000,20,0xD2,0x06,Write,ACK
1.554370000000000,21,0xD3,0x01,Read,NAK
1.554488500000000,22,0xD2,0x03,Write,ACK
1.554514000000000,22,0xD2,0x20,Write,ACK
1.564319000000000,23,0xD2,0x03,Write,ACK
1.564373000000000,24,0xD3,0x20,Read,NAK
1.564491500000000,25,0xD2,0x7F,Write,ACK
1.564517000000000,25,0xD2,0x30,Write,ACK
1.574322500000000,26,0xD2,0x7F,Write,ACK
1.574376500000000,27,0xD3,0x30,Read,NAK
1.574493000000000,28,0xD2,0x01,Write,ACK
1.574518500000000,28,0xD2,0x07,Write,ACK
1.584325500000000,29,0xD2,0x01,Write,ACK
1.584379500000000,30,0xD3,0x07,Read,NAK
1.584508500000000,31,0xD2,0x03,Write,ACK
1.584534000000000,31,0xD2,0x0C,Write,ACK
1.594328500000000,32,0xD2,0x03,Write,ACK
1.594382500000000,33,0xD3,0x0C,Read,NAK
1.594499000000000,34,0xD2,0x04,Write,ACK
1.594525000000000,34,0xD2,0x31,Write,ACK
1.604332000000000,35,0xD2,0x04,Write,ACK
1.604386000000000,36,0xD3,0x31,Read,NAK
1.604504500000000,37,0xD2,0x06,Write,ACK
1.604530000000000,37,0xD2,0x00,Write,ACK
1.614335500000000,38,0xD2,0x06,Write,ACK
1.614389500000000,39,0xD3,0x00,Read,NAK
1.614505500000000,40,0xD2,0x05,Write,ACK
1.614531500000000,40,0xD2,0x81,Write,ACK
1.624338500000000,41,0xD2,0x05,Write,ACK
1.624392500000000,42,0xD3,0x81,Read,NAK
1.624517000000000,43,0xD2,0x03,Write,ACK
1.624542500000000,43,0xD2,0x8C,Write,ACK
1.634342000000000,44,0xD2,0x03,Write,ACK
1.634396000000000,45,0xD3,0x8C,Read,NAK
1.634512500000000,46,0xD2,0x04,Write,ACK
1.634538000000000,46,0xD2,0x31,Write,ACK
1.644345000000000,47,0xD2,0x04,Write,ACK
1.644399000000000,48,0xD3,0x31,Read,NAK
1.644517500000000,49,0xD2,0x05,Write,ACK
1.644543000000000,49,0xD2,0x81,Write,ACK
1.654348500000000,50,0xD2,0x05,Write,ACK
1.654402500000000,51,0xD3,0x81,Read,NAK
1.655337000000000,52,0xD2,0x7F,Write,ACK
1.655363000000000,52,0xD2,0x00,Write,ACK
1.665352000000000,53,0xD2,0x7F,Write,ACK
1.665406000000000,54,0xD3,0x00,Read,NAK
1.665536000000000,55,0xD2,0x3B,Write,ACK
1.665590500000000,56,0xD3,0x00,Read,NAK
1.665707000000000,57,0xD2,0x06,Write,ACK
1.665733000000000,57,0xD2,0x80,Write,ACK
1.675355500000000,58,0xD2,0x06,Write,ACK
1.675409500000000,59,0xD3,0x41,Read,NAK
1.676344500000000,60,0xD2,0x7F,Write,ACK
1.676370000000000,60,0xD2,0x30,Write,ACK
1.686359000000000,61,0xD2,0x7F,Write,ACK
1.686413000000000,62,0xD3,0x30,Read,NAK
1.686529500000000,63,0xD2,0x03,Write,ACK
1.686555000000000,63,0xD2,0x0C,Write,ACK
1.696362000000000,64,0xD2,0x03,Write,ACK
1.696416000000000,65,0xD3,0x00,Read,NAK
1.696533000000000,66,0xD2,0x7F,Write,ACK
1.696558500000000,66,0xD2,0x00,Write,ACK
1.706365500000000,67,0xD2,0x7F,Write,ACK
1.706419500000000,68,0xD3,0x00,Read,NAK
1.706536000000000,69,0xD2,0x06,Write,ACK
1.706561500000000,69,0xD2,0x01,Write,ACK
1.716368500000000,70,0xD2,0x06,Write,ACK
1.716422500000000,71,0xD3,0x01,Read,NAK
1.716555000000000,72,0xD2,0x00,Write,ACK
1.716609000000000,73,0xD3,0xEA,Read,NAK
1.716728000000000,74,0xD2,0x07,Write,ACK
1.716753500000000,74,0xD2,0x00,Write,ACK
1.726372000000000,75,0xD2,0x07,Write,ACK
1.726426000000000,76,0xD3,0x00,Read,NAK
1.726547000000000,77,0xD2,0x7F,Write,ACK
1.726572500000000,77,0xD2,0x20,Write,ACK
1.736375000000000,78,0xD2,0x7F,Write,ACK
1.736429000000000,79,0xD3,0x20,Read,NAK
1.736568500000000,80,0xD2,0x14,Write,ACK
1.736594000000000,80,0xD2,0x07,Write,ACK
1.746378500000000,81,0xD2,0x14,Write,ACK
1.746432500000000,82,0xD3,0x07,Read,NAK
1.746565500000000,83,0xD2,0x01,Write,ACK
1.746591000000000,83,0xD2,0x07,Write,ACK
1.756381500000000,84,0xD2,0x01,Write,ACK
1.756436000000000,85,0xD3,0x07,Read,NAK
1.756558500000000,86,0xD2,0x00,Write,ACK
1.756584000000000,86,0xD2,0x00,Write,ACK
1.766385000000000,87,0xD2,0x00,Write,ACK
1.766439000000000,88,0xD3,0x00,Read,NAK
1.766558000000000,89,0xD2,0x10,Write,ACK
1.766583500000000,89,0xD2,0x00,Write,ACK
1.776388500000000,90,0xD2,0x10,Write,ACK
1.776442500000000,91,0xD3,0x00,Read,NAK
1.776560500000000,92,0xD2,0x11,Write,ACK
1.776586000000000,92,0xD2,0x00,Write,ACK
1.786391500000000,93,0xD2,0x11,Write,ACK
1.786445500000000,94,0xD3,0x00,Read,NAK
1.786562500000000,95,0xD2,0x7F,Write,ACK
1.786588000000000,95,0xD2,0x00,Write,ACK
1.796395000000000,96,0xD2,0x7F,Write,ACK
1.796449000000000,97,0xD3,0x00,Read,NAK
1.796565500000000,98,0xD2,0x03,Write,ACK
1.796591000000000,98,0xD2,0x20,Write,ACK
1.806398000000000,99,0xD2,0x03,Write,ACK
1.806452000000000,100,0xD3,0x20,Read,NAK
1.806569000000000,101,0xD2,0x7F,Write,ACK
1.806594500000000,101,0xD2,0x30,Write,ACK
1.816401500000000,102,0xD2,0x7F,Write,ACK
1.816455500000000,103,0xD3,0x30,Read,NAK
1.816572000000000,104,0xD2,0x01,Write,ACK
1.816597500000000,104,0xD2,0x07,Write,ACK
1.826405000000000,105,0xD2,0x01,Write,ACK
1.826459000000000,106,0xD3,0x07,Read,NAK
1.826577500000000,107,0xD2,0x03,Write,ACK
1.826603000000000,107,0xD2,0x8C,Write,ACK
1.836408000000000,108,0xD2,0x03,Write,ACK
1.836462000000000,109,0xD3,0x8C,Read,NAK
1.836578500000000,110,0xD2,0x04,Write,ACK
1.836604000000000,110,0xD2,0x00,Write,ACK
1.846411000000000,111,0xD2,0x04,Write,ACK
1.846465500000000,112,0xD3,0x00,Read,NAK
1.846581500000000,113,0xD2,0x05,Write,ACK
1.846607500000000,113,0xD2,0x82,Write,ACK
1.856414500000000,114,0xD2,0x05,Write,ACK
1.856468500000000,115,0xD3,0x82,Read,NAK
1.857403500000000,116,0xD2,0x7F,Write,ACK
1.857429000000000,116,0xD2,0x00,Write,ACK
1.867418000000000,117,0xD2,0x7F,Write,ACK
1.867472500000000,118,0xD3,0x00,Read,NAK
1.867601000000000,119,0xD2,0x3B,Write,ACK
1.867655000000000,120,0xD3,0x48,Read,ACK
1.867680500000000,120,0xD3,0x09,Read,NAK
1.867797500000000,121,0xD2,0x7F,Write,ACK
1.867823500000000,121,0xD2,0x30,Write,ACK
1.877421500000000,122,0xD2,0x7F,Write,ACK
1.877475500000000,123,0xD3,0x30,Read,NAK
1.877592000000000,124,0xD2,0x03,Write,ACK
1.877617500000000,124,0xD2,0x0C,Write,ACK
1.887424500000000,125,0xD2,0x03,Write,ACK
1.887478500000000,126,0xD3,0x0C,Read,NAK
1.887595000000000,127,0xD2,0x04,Write,ACK
1.887620500000000,127,0xD2,0x31,Write,ACK
1.897428000000000,128,0xD2,0x04,Write,ACK
1.897482000000000,129,0xD3,0x31,Read,NAK
1.897598500000000,130,0xD2,0x06,Write,ACK
1.897624000000000,130,0xD2,0x08,Write,ACK
1.907431000000000,131,0xD2,0x06,Write,ACK
1.907485000000000,132,0xD3,0x08,Read,NAK
1.907601500000000,133,0xD2,0x05,Write,ACK
1.907627500000000,133,0xD2,0x81,Write,ACK
1.917434500000000,134,0xD2,0x05,Write,ACK
1.917488500000000,135,0xD3,0x81,Read,NAK
1.917605000000000,136,0xD2,0x03,Write,ACK
1.917630500000000,136,0xD2,0x8C,Write,ACK
1.927438000000000,137,0xD2,0x03,Write,ACK
1.927492000000000,138,0xD3,0x8C,Read,NAK
1.927608500000000,139,0xD2,0x04,Write,ACK
1.927634000000000,139,0xD2,0x31,Write,ACK
1.937441000000000,140,0xD2,0x04,Write,ACK
1.937495000000000,141,0xD3,0x31,Read,NAK
1.937611500000000,142,0xD2,0x05,Write,ACK
1.937637000000000,142,0xD2,0x81,Write,ACK
1.947444500000000,143,0xD2,0x05,Write,ACK
1.947498500000000,144,0xD3,0x81,Read,NAK
1.948433000000000,145,0xD2,0x7F,Write,ACK
1.948458500000000,145,0xD2,0x00,Write,ACK
1.958448000000000,146,0xD2,0x7F,Write,ACK
1.958502000000000,147,0xD3,0x00,Read,NAK
1.958630500000000,148,0xD2,0x3B,Write,ACK
1.958684500000000,149,0xD3,0x08,Read,NAK
1.958801000000000,150,0xD2,0x06,Write,ACK
1.958827000000000,150,0xD2,0x01,Write,ACK
1.968451000000000,151,0xD2,0x06,Write,ACK
1.968505500000000,152,0xD3,0x01,Read,NAK
1.968624000000000,153,0xD2,0x7F,Write,ACK
1.968649500000000,153,0xD2,0x30,Write,ACK
1.978454500000000,154,0xD2,0x7F,Write,ACK
1.978508500000000,155,0xD3,0x30,Read,NAK
1.978625000000000,156,0xD2,0x03,Write,ACK
1.978650500000000,156,0xD2,0x8C,Write,ACK
1.988457500000000,157,0xD2,0x03,Write,ACK
1.988511500000000,158,0xD3,0x8C,Read,NAK
1.988628000000000,159,0xD2,0x04,Write,ACK
1.988653500000000,159,0xD2,0x11,Write,ACK
1.998461000000000,160,0xD2,0x04,Write,ACK
1.998515000000000,161,0xD3,0x11,Read,NAK
1.998631500000000,162,0xD2,0x05,Write,ACK
1.998657000000000,162,0xD2,0x88,Write,ACK
2.008464500000000,163,0xD2,0x05,Write,ACK
2.008518500000000,164,0xD3,0x88,Read,NAK
2.009453000000000,165,0xD2,0x7F,Write,ACK
2.009478500000000,165,0xD2,0x00,Write,ACK
2.019468000000000,166,0xD2,0x7F,Write,ACK
2.019522000000000,167,0xD3,0x00,Read,NAK
2.019650500000000,168,0xD2,0x3B,Write,ACK
2.019704500000000,169,0xD3,0xB7,Read,ACK
2.019730000000000,169,0xD3,0x00,Read,ACK
2.019755500000000,169,0xD3,0x9F,Read,ACK
2.019781500000000,169,0xD3,0xFE,Read,ACK
2.019807000000000,169,0xD3,0x5B,Read,ACK
2.019832500000000,169,0xD3,0xFF,Read,ACK
2.019858000000000,169,0xD3,0x00,Read,ACK
2.019883500000000,169,0xD3,0x10,Read,NAK
2.020077000000000,170,0xD2,0x2D,Write,ACK
2.020131000000000,171,0xD3,0xFE,Read,ACK
2.020156500000000,171,0xD3,0x68,Read,ACK
2.020182000000000,171,0xD3,0xF8,Read,ACK
2.020207500000000,171,0xD3,0x46,Read,ACK
2.020233500000000,171,0xD3,0xFF,Read,ACK
2.020259000000000,171,0xD3,0xCC,Read,ACK
2.020284500000000,171,0xD3,0x00,Read,ACK
2.020310000000000,171,0xD3,0x5D,Read,ACK
2.020335500000000,171,0xD3,0x00,Read,ACK
2.020361500000000,171,0xD3,0x93,Read,ACK
2.020387000000000,171,0xD3,0xFF,Read,ACK
2.020412500000000,171,0xD3,0xE2,Read,ACK
2.020438000000000,171,0xD3,0x0E,Read,ACK
2.020464000000000,171,0xD3,0x70,Read,ACK
2.020489500000000,171,0xD3,0xB7,Read,ACK
2.020515000000000,171,0xD3,0x00,Read,ACK
2.020540500000000,171,0xD3,0x9F,Read,ACK
2.020566000000000,171,0xD3,0xFE,Read,ACK
2.020592000000000,171,0xD3,0x5B,Read,ACK
2.020617500000000,171,0xD3,0xFF,Read,NAK
2.121502000000000,172,0xD2,0x2D,Write,ACK
2.121556000000000,173,0xD3,0xFE,Read,ACK
2.121581500000000,173,0xD3,0x45,Read,ACK
2.121607500000000,173,0xD3,0xF8,Read,ACK
2.121633000000000,173,0xD3,0xD9,Read,ACK
2.121658500000000,173,0xD3,0xFF,Read,ACK
2.121684000000000,173,0xD3,0x7F,Read,ACK
2.121709500000000,173,0xD3,0xFF,Read,ACK
2.121735500000000,173,0xD3,0xE9,Read,ACK
2.121761000000000,173,0xD3,0xFF,Read,ACK
2.121786500000000,173,0xD3,0xC9,Read,ACK
2.121812000000000,173,0xD3,0xFF,Read,ACK
2.121837500000000,173,0xD3,0xFC,Read,ACK
2.121863500000000,173,0xD3,0x0E,Read,ACK
2.121889000000000,173,0xD3,0x40,Read,ACK
2.121914500000000,173,0xD3,0xAD,Read,ACK
2.121940000000000,173,0xD3,0x00,Read,ACK
2.121965500000000,173,0xD3,0x9A,Read,ACK
2.121991500000000,173,0xD3,0xFE,Read,ACK
2.122017000000000,173,0xD3,0x62,Read,ACK
2.122042500000000,173,0xD3,0xFF,Read,NAK
2.222535000000000,174,0xD2,0x2D,Write,ACK
2.222589000000000,175,0xD3,0xFE,Read,ACK
2.222614500000000,175,0xD3,0x5D,Read,ACK
2.222640500000000,175,0xD3,0xF7,Read,ACK
2.222666000000000,175,0xD3,0xE6,Read,ACK
2.222691500000000,175,0xD3,0xFF,Read,ACK
2.222717000000000,175,0xD3,0x61,Read,ACK
2.222742500000000,175,0xD3,0x00,Read,ACK
2.222768500000000,175,0xD3,0x38,Read,ACK
2.222794000000000,175,0xD3,0xFF,Read,ACK
2.222819500000000,175,0xD3,0x53,Read,ACK
2.222845000000000,175,0xD3,0xFF,Read,ACK
2.222870500000000,175,0xD3,0xF6,Read,ACK
2.222896500000000,175,0xD3,0x0E,Read,ACK
2.222922000000000,175,0xD3,0x40,Read,ACK
2.222947500000000,175,0xD3,0xAE,Read,ACK
2.222973000000000,175,0xD3,0x00,Read,ACK
2.222998500000000,175,0xD3,0x94,Read,ACK
2.223024500000000,175,0xD3,0xFE,Read,ACK
2.223050000000000,175,0xD3,0x6B,Read,ACK
2.223075500000000,175,0xD3,0xFF,Read,NAK
2.323568000000000,176,0xD2,0x2D,Write,ACK
2.323622000000000,177,0xD3,0xFE,Read,ACK
2.323648000000000,177,0xD3,0x1F,Read,ACK
2.323673500000000,177,0xD3,0xF8,Read,ACK
2.323699000000000,177,0xD3,0x69,Read,ACK
2.323724500000000,177,0xD3,0x00,Read,ACK
2.323750000000000,177,0xD3,0x23,Read,ACK
2.323776000000000,177,0xD3,0x00,Read,ACK
2.323801500000000,177,0xD3,0x37,Read,ACK
2.323827000000000,177,0xD3,0x00,Read,ACK
2.323852500000000,177,0xD3,0x2B,Read,ACK
2.323878000000000,177,0xD3,0x00,Read,ACK
2.323904000000000,177,0xD3,0x1C,Read,ACK
2.323929500000000,177,0xD3,0x0E,Read,ACK
2.323955000000000,177,0xD3,0x20,Read,ACK
2.323980500000000,177,0xD3,0xB2,Read,ACK
2.324006500000000,177,0xD3,0x00,Read,ACK
2.324032000000000,177,0xD3,0xA7,Read,ACK
2.324057500000000,177,0xD3,0xFE,Read,ACK
2.324083000000000,177,0xD3,0x76,Read,ACK
2.324108500000000,177,0xD3,0xFF,Read,NAK
2.424601000000000,178,0xD2,0x2D,Write,ACK
2.424655500000000,179,0xD3,0xFE,Read,ACK
2.424681000000000,179,0xD3,0x52,Read,ACK
2.424706500000000,179,0xD3,0xF7,Read,ACK
2.424732000000000,179,0xD3,0xD2,Read,ACK
2.424757500000000,179,0xD3,0xFF,Read,ACK
2.424783500000000,179,0xD3,0x79,Read,ACK
2.424809000000000,179,0xD3,0x00,Read,ACK
2.424834500000000,179,0xD3,0x93,Read,ACK
2.424860000000000,179,0xD3,0x00,Read,ACK
2.424885500000000,179,0xD3,0x1A,Read,ACK
2.424911500000000,179,0xD3,0x00,Read,ACK
2.424937000000000,179,0xD3,0x2C,Read,ACK
2.424962500000000,179,0xD3,0x0E,Read,ACK
2.424988000000000,179,0xD3,0x10,Read,ACK
2.425013500000000,179,0xD3,0xA9,Read,ACK
2.425039500000000,179,0xD3,0x00,Read,ACK
2.425065000000000,179,0xD3,0x9E,Read,ACK
2.425090500000000,179,0xD3,0xFE,Read,ACK
2.425116000000000,179,0xD3,0x6E,Read,ACK
2.425142000000000,179,0xD3,0xFF,Read,NAK
2.525634500000000,180,0xD2,0x2D,Write,ACK
2.525688500000000,181,0xD3,0xFE,Read,ACK
2.525714000000000,181,0xD3,0x2A,Read,ACK
2.525739500000000,181,0xD3,0xF8,Read,ACK
2.525765000000000,181,0xD3,0x13,Read,ACK
2.525791000000000,181,0xD3,0xFF,Read,ACK
2.525816500000000,181,0xD3,0xF2,Read,ACK
2.525842000000000,181,0xD3,0x00,Read,ACK
2.525867500000000,181,0xD3,0x60,Read,ACK
2.525893500000000,181,0xD3,0x00,Read,ACK
2.525919000000000,181,0xD3,0x31,Read,ACK
2.525944500000000,181,0xD3,0x00,Read,ACK
2.525970000000000,181,0xD3,0x18,Read,ACK
2.525995500000000,181,0xD3,0x0E,Read,ACK
2.526021500000000,181,0xD3,0x50,Read,ACK
2.526047000000000,181,0xD3,0xA5,Read,ACK
2.526072500000000,181,0xD3,0x00,Read,ACK
2.526098000000000,181,0xD3,0x9F,Read,ACK
2.526124000000000,181,0xD3,0xFE,Read,ACK
2.526149500000000,181,0xD3,0x67,Read,ACK
2.526175000000000,181,0xD3,0xFF,Read,NAK
2.626667500000000,182,0xD2,0x2D,Write,ACK
2.626721500000000,183,0xD3,0xFE,Read,ACK
2.626747000000000,183,0xD3,0x40,Read,ACK
2.626772500000000,183,0xD3,0xF8,Read,ACK
2.626798000000000,183,0xD3,0x2F,Read,ACK
2.626824000000000,183,0xD3,0xFF,Read,ACK
2.626849500000000,183,0xD3,0xE5,Read,ACK
2.626875000000000,183,0xD3,0x00,Read,ACK
2.626900500000000,183,0xD3,0x26,Read,ACK
2.626926000000000,183,0xD3,0x00,Read,ACK
2.626952000000000,183,0xD3,0x1F,Read,ACK
2.626977500000000,183,0xD3,0xFF,Read,ACK
2.627003000000000,183,0xD3,0xF0,Read,ACK
2.627028500000000,183,0xD3,0x0E,Read,ACK
2.627054000000000,183,0xD3,0x40,Read,ACK
2.627080000000000,183,0xD3,0xAF,Read,ACK
2.627105500000000,183,0xD3,0x00,Read,ACK
2.627131000000000,183,0xD3,0x9A,Read,ACK
2.627156500000000,183,0xD3,0xFE,Read,ACK
2.627182500000000,183,0xD3,0x6C,Read,ACK
2.627208000000000,183,0xD3,0xFF,Read,NAK
2.727700500000000,184,0xD2,0x2D,Write,ACK
2.727754500000000,185,0xD3,0xFE,Read,ACK
2.727780000000000,185,0xD3,0x51,Read,ACK
2.727805500000000,185,0xD3,0xF8,Read,ACK
2.727831000000000,185,0xD3,0x61,Read,ACK
2.727857000000000,185,0xD3,0xFF,Read,ACK
2.727882500000000,185,0xD3,0xB2,Read,ACK
2.727908000000000,185,0xD3,0x00,Read,ACK
2.727933500000000,185,0xD3,0x1F,Read,ACK
2.727959000000000,185,0xD3,0x00,Read,ACK
2.727985000000000,185,0xD3,0x26,Read,ACK
2.728010500000000,185,0xD3,0x00,Read,ACK
2.728036000000000,185,0xD3,0x1C,Read,ACK
2.728061500000000,185,0xD3,0x0E,Read,ACK
2.728087500000000,185,0xD3,0x90,Read,ACK
2.728113000000000,185,0xD3,0xB6,Read,ACK
2.728138500000000,185,0xD3,0x00,Read,ACK
2.728164000000000,185,0xD3,0x97,Read,ACK
2.728190000000000,185,0xD3,0xFE,Read,ACK
2.728215500000000,185,0xD3,0x70,Read,ACK
2.728241000000000,185,0xD3,0xFF,Read,NAK
2.828733500000000,186,0xD2,0x2D,Write,ACK
2.828787500000000,187,0xD3,0xFE,Read,ACK
2.828813000000000,187,0xD3,0x5F,Read,ACK
2.828838500000000,187,0xD3,0xF8,Read,ACK
2.828864500000000,187,0xD3,0x2B,Read,ACK
2.828890000000000,187,0xD3,0xFF,Read,ACK
2.828915500000000,187,0xD3,0x9F,Read,ACK
2.828941000000000,187,0xD3,0xFF,Read,ACK
2.828966500000000,187,0xD3,0xE7,Read,ACK
2.828992500000000,187,0xD3,0xFF,Read,ACK
2.829018000000000,187,0xD3,0xEE,Read,ACK
2.829043500000000,187,0xD3,0x00,Read,ACK
2.829069000000000,187,0xD3,0x13,Read,ACK
2.829094500000000,187,0xD3,0x0E,Read,ACK
2.829120500000000,187,0xD3,0x00,Read,ACK
2.829146000000000,187,0xD3,0xB5,Read,ACK
2.829171500000000,187,0xD3,0x00,Read,ACK
2.829197000000000,187,0xD3,0x9D,Read,ACK
2.829223000000000,187,0xD3,0xFE,Read,ACK
2.829248500000000,187,0xD3,0x76,Read,ACK
2.829274000000000,187,0xD3,0xFF,Read,NAK
2.929766500000000,188,0xD2,0x2D,Write,ACK
2.929820500000000,189,0xD3,0xFE,Read,ACK
2.929846000000000,189,0xD3,0x1D,Read,ACK
2.929872000000000,189,0xD3,0xF8,Read,ACK
2.929897500000000,189,0xD3,0x40,Read,ACK
2.929923000000000,189,0xD3,0x00,Read,ACK
2.929948500000000,189,0xD3,0x15,Read,ACK
2.929974500000000,189,0xD3,0x00,Read,ACK
2.930000000000000,189,0xD3,0x0E,Read,ACK
2.930025500000000,189,0xD3,0x00,Read,ACK
2.930051000000000,189,0xD3,0x31,Read,ACK
2.930076500000000,189,0xD3,0xFF,Read,ACK
2.930102500000000,189,0xD3,0xF4,Read,ACK
2.930128000000000,189,0xD3,0x0E,Read,ACK
2.930153500000000,189,0xD3,0x20,Read,ACK
2.930179000000000,189,0xD3,0xAD,Read,ACK
2.930204500000000,189,0xD3,0x00,Read,ACK
2.930230500000000,189,0xD3,0xA7,Read,ACK
2.930256000000000,189,0xD3,0xFE,Read,ACK
2.930281500000000,189,0xD3,0x6F,Read,ACK
2.930307000000000,189,0xD3,0xFF,Read,NAK
3.030799500000000,190,0xD2,0x2D,Write,ACK
3.030853500000000,191,0xD3,0xFE,Read,ACK
3.030879000000000,191,0xD3,0x74,Read,ACK
3.030905000000000,191,0xD3,0xF7,Read,ACK
3.030930500000000,191,0xD3,0xFA,Read,ACK
3.030956000000000,191,0xD3,0xFF,Read,ACK
3.030981500000000,191,0xD3,0x97,Read,ACK
3.031007000000000,191,0xD3,0x00,Read,ACK
3.031033000000000,191,0xD3,0x03,Read,ACK
3.031058500000000,191,0xD3,0x00,Read,ACK
3.031084000000000,191,0xD3,0x1D,Read,ACK
3.031109500000000,191,0xD3,0x00,Read,ACK
3.031135500000000,191,0xD3,0x07,Read,ACK
3.031161000000000,191,0xD3,0x0E,Read,ACK
3.031186500000000,191,0xD3,0x50,Read,ACK
3.031212000000000,191,0xD3,0xAD,Read,ACK
3.031238000000000,191,0xD3,0x00,Read,ACK
3.031263500000000,191,0xD3,0x9D,Read,ACK
3.031289000000000,191,0xD3,0xFE,Read,ACK
3.031314500000000,191,0xD3,0x6C,Read,ACK
3.031340000000000,191,0xD3,0xFF,Read,NAK
3.131832500000000,192,0xD2,0x2D,Write,ACK
3.131886500000000,193,0xD3,0xFE,Read,ACK
3.131912500000000,193,0xD3,0x46,Read,ACK
3.131938000000000,193,0xD3,0xF8,Read,ACK
3.131963500000000,193,0xD3,0x63,Read,ACK
3.131989000000000,193,0xD3,0xFF,Read,ACK
3.132014500000000,193,0xD3,0xE3,Read,ACK
3.132040500000000,193,0xD3,0xFF,Read,ACK
3.132066000000000,193,0xD3,0xF4,Read,ACK
3.132091500000000,193,0xD3,0xFF,Read,ACK
3.132117000000000,193,0xD3,0xE2,Read,ACK
3.132142500000000,193,0xD3,0x00,Read,ACK
3.132168500000000,193,0xD3,0x08,Read,ACK
3.132194000000000,193,0xD3,0x0E,Read,ACK
3.132219500000000,193,0xD3,0x10,Read,ACK
3.132245000000000,193,0xD3,0xB1,Read,ACK
3.132271000000000,193,0xD3,0x00,Read,ACK
3.132296500000000,193,0xD3,0x9C,Read,ACK
3.132322000000000,193,0xD3,0xFE,Read,ACK
3.132347500000000,193,0xD3,0x6B,Read,ACK
3.132373000000000,193,0xD3,0xFF,Read,NAK
3.232865500000000,194,0xD2,0x2D,Write,ACK
3.232919500000000,195,0xD3,0xFE,Read,ACK
3.232945500000000,195,0xD3,0x50,Read,ACK
3.232971000000000,195,0xD3,0xF7,Read,ACK
3.232996500000000,195,0xD3,0xE8,Read,ACK
3.233022000000000,195,0xD3,0xFF,Read,ACK
3.233047500000000,195,0xD3,0xCD,Read,ACK
3.233073500000000,195,0xD3,0xFF,Read,ACK
3.233099000000000,195,0xD3,0xF0,Read,ACK
3.233124500000000,195,0xD3,0x00,Read,ACK
3.233150000000000,195,0xD3,0x3A,Read,ACK
3.233176000000000,195,0xD3,0xFF,Read,ACK
3.233201500000000,195,0xD3,0xF5,Read,ACK
3.233227000000000,195,0xD3,0x0E,Read,ACK
3.233252500000000,195,0xD3,0x40,Read,ACK
3.233278000000000,195,0xD3,0xB1,Read,ACK
3.233304000000000,195,0xD3,0x00,Read,ACK
3.233329500000000,195,0xD3,0x92,Read,ACK
3.233355000000000,195,0xD3,0xFE,Read,ACK
3.233380500000000,195,0xD3,0x6B,Read,ACK
3.233406000000000,195,0xD3,0xFF,Read,NAK
3.333898500000000,196,0xD2,0x2D,Write,ACK
3.333952500000000,197,0xD3,0xFE,Read,ACK
3.333978500000000,197,0xD3,0x61,Read,ACK
3.334004000000000,197,0xD3,0xF8,Read,ACK
3.334029500000000,197,0xD3,0x68,Read,ACK
3.334055000000000,197,0xD3,0xFF,Read,ACK
3.334081000000000,197,0xD3,0xFA,Read,ACK
3.334106500000000,197,0xD3,0xFF,Read,ACK
3.334132000000000,197,0xD3,0xEE,Read,ACK
3.334157500000000,197,0xD3,0x00,Read,ACK
3.334183000000000,197,0xD3,0x06,Read,ACK
3.334209000000000,197,0xD3,0x00,Read,ACK
3.334234500000000,197,0xD3,0x23,Read,ACK
3.334260000000000,197,0xD3,0x0E,Read,ACK
3.334285500000000,197,0xD3,0x10,Read,ACK
3.334311500000000,197,0xD3,0xB9,Read,ACK
3.334337000000000,197,0xD3,0x00,Read,ACK
3.334362500000000,197,0xD3,0x9E,Read,ACK
3.334388000000000,197,0xD3,0xFE,Read,ACK
3.334413500000000,197,0xD3,0x69,Read,ACK
3.334439500000000,197,0xD3,0xFF,Read,NAK
3.434931500000000,198,0xD2,0x2D,Write,ACK
3.434985500000000,199,0xD3,0xFE,Read,ACK
3.435011500000000,199,0xD3,0x41,Read,ACK
3.435037000000000,199,0xD3,0xF7,Read,ACK
3.435062500000000,199,0xD3,0xE1,Read,ACK
3.435088000000000,199,0xD3,0xFF,Read,ACK
3.435114000000000,199,0xD3,0xF8,Read,ACK
3.435139500000000,199,0xD3,0x00,Read,ACK
3.435165000000000,199,0xD3,0x02,Read,ACK
3.435190500000000,199,0xD3,0x00,Read,ACK
3.435216500000000,199,0xD3,0x50,Read,ACK
3.435242000000000,199,0xD3,0xFF,Read,ACK
3.435267500000000,199,0xD3,0xFC,Read,ACK
3.435293000000000,199,0xD3,0x0E,Read,ACK
3.435318500000000,199,0xD3,0x20,Read,ACK
3.435344500000000,199,0xD3,0xAF,Read,ACK
3.435370000000000,199,0xD3,0x00,Read,ACK
3.435395500000000,199,0xD3,0x9D,Read,ACK
3.435421000000000,199,0xD3,0xFE,Read,ACK
3.435447000000000,199,0xD3,0x6C,Read,ACK
3.435472500000000,199,0xD3,0xFF,Read,NAK
3.535965000000000,200,0xD2,0x2D,Write,ACK
3.536019000000000,201,0xD3,0xFE,Read,ACK
3.536044500000000,201,0xD3,0x58,Read,ACK
3.536070000000000,201,0xD3,0xF8,Read,ACK
3.536095500000000,201,0xD3,0x5E,Read,ACK
3.536121000000000,201,0xD3,0xFF,Read,ACK
3.536147000000000,201,0xD3,0xCF,Read,ACK
3.536172500000000,201,0xD3,0xFF,Read,ACK
3.536198000000000,201,0xD3,0xF1,Read,ACK
3.536223500000000,201,0xD3,0xFF,Read,ACK
3.536249000000000,201,0xD3,0xE0,Read,ACK
3.536275000000000,201,0xD3,0x00,Read,ACK
3.536300500000000,201,0xD3,0x0B,Read,ACK
3.536326000000000,201,0xD3,0x0E,Read,ACK
3.536351500000000,201,0xD3,0x70,Read,ACK
3.536377500000000,201,0xD3,0xB1,Read,ACK
3.536403000000000,201,0xD3,0x00,Read,ACK
3.536428500000000,201,0xD3,0x99,Read,ACK
3.536454000000000,201,0xD3,0xFE,Read,ACK
3.536479500000000,201,0xD3,0x6B,Read,ACK
3.536505500000000,201,0xD3,0xFF,Read,NAK
3.636998000000000,202,0xD2,0x2D,Write,ACK
3.637052000000000,203,0xD3,0xFE,Read,ACK
3.637077500000000,203,0xD3,0x37,Read,ACK
3.637103000000000,203,0xD3,0xF8,Read,ACK
3.637128500000000,203,0xD3,0x0D,Read,ACK
3.637154500000000,203,0xD3,0xFF,Read,ACK
3.637180000000000,203,0xD3,0xC7,Read,ACK
3.637205500000000,203,0xD3,0x00,Read,ACK
3.637231000000000,203,0xD3,0x32,Read,ACK
3.637256500000000,203,0xD3,0x00,Read,ACK
3.637282500000000,203,0xD3,0x52,Read,ACK
3.637308000000000,203,0xD3,0x00,Read,ACK
3.637333500000000,203,0xD3,0x06,Read,ACK
3.637359000000000,203,0xD3,0x0E,Read,ACK
3.637385000000000,203,0xD3,0x20,Read,ACK
3.637410500000000,203,0xD3,0xAE,Read,ACK
3.637436000000000,203,0xD3,0x00,Read,ACK
3.637461500000000,203,0xD3,0x9C,Read,ACK
3.637487000000000,203,0xD3,0xFE,Read,ACK
3.637513000000000,203,0xD3,0x73,Read,ACK
3.637538500000000,203,0xD3,0xFF,Read,NAK
3.738031000000000,204,0xD2,0x2D,Write,ACK
3.738085000000000,205,0xD3,0xFE,Read,ACK
3.738110500000000,205,0xD3,0x63,Read,ACK
3.738136000000000,205,0xD3,0xF8,Read,ACK
3.738162000000000,205,0xD3,0x63,Read,ACK
3.738187500000000,205,0xD3,0xFF,Read,ACK
3.738213000000000,205,0xD3,0x88,Read,ACK
3.738238500000000,205,0xD3,0xFF,Read,ACK
3.738264500000000,205,0xD3,0xE8,Read,ACK
3.738290000000000,205,0xD3,0xFF,Read,ACK
3.738315500000000,205,0xD3,0xFE,Read,ACK
3.738341000000000,205,0xD3,0x00,Read,ACK
3.738366500000000,205,0xD3,0x23,Read,ACK
3.738392500000000,205,0xD3,0x0E,Read,ACK
3.738418000000000,205,0xD3,0x20,Read,ACK
3.738443500000000,205,0xD3,0xB3,Read,ACK
3.738469000000000,205,0xD3,0x00,Read,ACK
3.738495000000000,205,0xD3,0xA3,Read,ACK
3.738520500000000,205,0xD3,0xFE,Read,ACK
3.738546000000000,205,0xD3,0x6B,Read,ACK
3.738571500000000,205,0xD3,0xFF,Read,NAK
3.839064000000000,206,0xD2,0x2D,Write,ACK
3.839118000000000,207,0xD3,0xFE,Read,ACK
3.839143500000000,207,0xD3,0x32,Read,ACK
3.839169000000000,207,0xD3,0xF7,Read,ACK
3.839195000000000,207,0xD3,0xE6,Read,ACK
3.839220500000000,207,0xD3,0x00,Read,ACK
3.839246000000000,207,0xD3,0x37,Read,ACK
3.839271500000000,207,0xD3,0x00,Read,ACK
3.839297500000000,207,0xD3,0x2B,Read,ACK
3.839323000000000,207,0xD3,0x00,Read,ACK
3.839348500000000,207,0xD3,0x29,Read,ACK
3.839374000000000,207,0xD3,0xFF,Read,ACK
3.839399500000000,207,0xD3,0xE1,Read,ACK
3.839425500000000,207,0xD3,0x0E,Read,ACK
3.839451000000000,207,0xD3,0x80,Read,ACK
3.839476500000000,207,0xD3,0xB5,Read,ACK
3.839502000000000,207,0xD3,0x00,Read,ACK
3.839528000000000,207,0xD3,0x9A,Read,ACK
3.839553500000000,207,0xD3,0xFE,Read,ACK
3.839579000000000,207,0xD3,0x67,Read,ACK
3.839604500000000,207,0xD3,0xFF,Read,NAK
3.940097000000000,208,0xD2,0x2D,Write,ACK
3.940151000000000,209,0xD3,0xFE,Read,ACK
3.940176500000000,209,0xD3,0x6A,Read,ACK
3.940202500000000,209,0xD3,0xF8,Read,ACK
3.940228000000000,209,0xD3,0x33,Read,ACK
3.940253500000000,209,0xD3,0xFF,Read,ACK
3.940279000000000,209,0xD3,0x95,Read,ACK
3.940304500000000,209,0xD3,0xFF,Read,ACK
3.940330000000000,209,0xD3,0xE0,Read,ACK
3.940356000000000,209,0xD3,0xFF,Read,ACK
3.940381500000000,209,0xD3,0xFA,Read,ACK
3.940407000000000,209,0xD3,0x00,Read,ACK
3.940432500000000,209,0xD3,0x2D,Read,ACK
3.940458500000000,209,0xD3,0x0E,Read,ACK
3.940484000000000,209,0xD3,0x00,Read,ACK
3.940509500000000,209,0xD3,0xA5,Read,ACK
3.940535000000000,209,0xD3,0x00,Read,ACK
3.940560500000000,209,0xD3,0x9A,Read,ACK
3.940586500000000,209,0xD3,0xFE,Read,ACK
3.940612000000000,209,0xD3,0x67,Read,ACK
3.940637500000000,209,0xD3,0xFF,Read,NAK
4.041130000000000,210,0xD2,0x2D,Write,ACK
4.041184000000000,211,0xD3,0xFE,Read,ACK
4.041209500000000,211,0xD3,0x1C,Read,ACK
4.041235500000000,211,0xD3,0xF8,Read,ACK
4.041261000000000,211,0xD3,0x3F,Read,ACK
4.041286500000000,211,0xD3,0x00,Read,ACK
4.041312000000000,211,0xD3,0x21,Read,ACK
4.041337500000000,211,0xD3,0x00,Read,ACK
4.041363500000000,211,0xD3,0x05,Read,ACK
4.041389000000000,211,0xD3,0x00,Read,ACK
4.041414500000000,211,0xD3,0x19,Read,ACK
4.041440000000000,211,0xD3,0xFF,Read,ACK
4.041465500000000,211,0xD3,0xE7,Read,ACK
4.041491500000000,211,0xD3,0x0E,Read,ACK
4.041517000000000,211,0xD3,0x40,Read,ACK
4.041542500000000,211,0xD3,0xB2,Read,ACK
4.041568000000000,211,0xD3,0x00,Read,ACK
4.041594000000000,211,0xD3,0x9A,Read,ACK
4.041619500000000,211,0xD3,0xFE,Read,ACK
4.041645000000000,211,0xD3,0x74,Read,ACK
4.041670500000000,211,0xD3,0xFF,Read,NAK
4.142163000000000,212,0xD2,0x2D,Write,ACK
4.142217000000000,213,0xD3,0xFE,Read,ACK
4.142242500000000,213,0xD3,0x76,Read,ACK
4.142268500000000,213,0xD3,0xF7,Read,ACK
4.142294000000000,213,0xD3,0xEA,Read,ACK
4.142319500000000,213,0xD3,0xFF,Read,ACK
4.142345000000000,213,0xD3,0xA4,Read,ACK
4.142370500000000,213,0xD3,0xFF,Read,ACK
4.142396500000000,213,0xD3,0xF4,Read,ACK
4.142422000000000,213,0xD3,0x00,Read,ACK
4.142447500000000,213,0xD3,0x2F,Read,ACK
4.142473000000000,213,0xD3,0x00,Read,ACK
4.142499000000000,213,0xD3,0x14,Read,ACK
4.142524500000000,213,0xD3,0x0E,Read,ACK
4.142550000000000,213,0xD3,0x70,Read,ACK
4.142575500000000,213,0xD3,0xAD,Read,ACK
4.142601000000000,213,0xD3,0x00,Read,ACK
4.142627000000000,213,0xD3,0x9D,Read,ACK
4.142652500000000,213,0xD3,0xFE,Read,ACK
4.142678000000000,213,0xD3,0x6A,Read,ACK
4.142703500000000,213,0xD3,0xFF,Read,NAK
4.243196000000000,214,0xD2,0x2D,Write,ACK
4.243250000000000,215,0xD3,0xFE,Read,ACK
4.243276000000000,215,0xD3,0x2C,Read,ACK
4.243301500000000,215,0xD3,0xF8,Read,ACK
4.243327000000000,215,0xD3,0x65,Read,ACK
4.243352500000000,215,0xD3,0x00,Read,ACK
4.243378500000000,215,0xD3,0x22,Read,ACK
4.243404000000000,215,0xD3,0x00,Read,ACK
4.243429500000000,215,0xD3,0x07,Read,ACK
4.243455000000000,215,0xD3,0xFF,Read,ACK
4.243480500000000,215,0xD3,0xFA,Read,ACK
4.243506500000000,215,0xD3,0xFF,Read,ACK
4.243532000000000,215,0xD3,0xE1,Read,ACK
4.243557500000000,215,0xD3,0x0E,Read,ACK
4.243583000000000,215,0xD3,0x90,Read,ACK
4.243608500000000,215,0xD3,0xA9,Read,ACK
4.243634500000000,215,0xD3,0x00,Read,ACK
4.243660000000000,215,0xD3,0x97,Read,ACK
4.243685500000000,215,0xD3,0xFE,Read,ACK
4.243711000000000,215,0xD3,0x6E,Read,ACK
4.243736500000000,215,0xD3,0xFF,Read,NAK
4.344229000000000,216,0xD2,0x2D,Write,ACK
4.344283000000000,217,0xD3,0xFE,Read,ACK
4.344309000000000,217,0xD3,0x80,Read,ACK
4.344334500000000,217,0xD3,0xF7,Read,ACK
4.344360000000000,217,0xD3,0xDE,Read,ACK
4.344385500000000,217,0xD3,0xFF,Read,ACK
4.344411000000000,217,0xD3,0xA1,Read,ACK
4.344437000000000,217,0xD3,0x00,Read,ACK
4.344462500000000,217,0xD3,0x29,Read,ACK
4.344488000000000,217,0xD3,0x00,Read,ACK
4.344513500000000,217,0xD3,0x39,Read,ACK
4.344539500000000,217,0xD3,0x00,Read,ACK
4.344565000000000,217,0xD3,0x22,Read,ACK
4.344590500000000,217,0xD3,0x0E,Read,ACK
4.344616000000000,217,0xD3,0x50,Read,ACK
4.344641500000000,217,0xD3,0xAB,Read,ACK
4.344667500000000,217,0xD3,0x00,Read,ACK
4.344693000000000,217,0xD3,0x94,Read,ACK
4.344718500000000,217,0xD3,0xFE,Read,ACK
4.344744000000000,217,0xD3,0x69,Read,ACK
4.344770000000000,217,0xD3,0xFF,Read,NAK
4.445262000000000,218,0xD2,0x2D,Write,ACK
4.445316500000000,219,0xD3,0xFE,Read,ACK
4.445342000000000,219,0xD3,0x3B,Read,ACK
4.445367500000000,219,0xD3,0xF8,Read,ACK
4.445393000000000,219,0xD3,0x76,Read,ACK
4.445418500000000,219,0xD3,0x00,Read,ACK
4.445444500000000,219,0xD3,0x1D,Read,ACK
4.445470000000000,219,0xD3,0x00,Read,ACK
4.445495500000000,219,0xD3,0x0B,Read,ACK
4.445521000000000,219,0xD3,0xFF,Read,ACK
4.445547000000000,219,0xD3,0xEF,Read,ACK
4.445572500000000,219,0xD3,0x00,Read,ACK
4.445598000000000,219,0xD3,0x05,Read,ACK
4.445623500000000,219,0xD3,0x0D,Read,ACK
4.445649000000000,219,0xD3,0xE0,Read,ACK
4.445675000000000,219,0xD3,0xA6,Read,ACK
4.445700500000000,219,0xD3,0x00,Read,ACK
4.445726000000000,219,0xD3,0x99,Read,ACK
4.445751500000000,219,0xD3,0xFE,Read,ACK
4.445777500000000,219,0xD3,0x66,Read,ACK
4.445803000000000,219,0xD3,0xFF,Read,NAK
4.546295500000000,220,0xD2,0x2D,Write,ACK
4.546349500000000,221,0xD3,0xFE,Read,ACK
4.546375000000000,221,0xD3,0x4F,Read,ACK
4.546400500000000,221,0xD3,0xF7,Read,ACK
4.546426000000000,221,0xD3,0xF5,Read,ACK
4.546451500000000,221,0xD3,0xFF,Read,ACK
4.546477500000000,221,0xD3,0xBA,Read,ACK
4.546503000000000,221,0xD3,0x00,Read,ACK
4.546528500000000,221,0xD3,0x3C,Read,ACK
4.546554000000000,221,0xD3,0x00,Read,ACK
4.546579500000000,221,0xD3,0x4D,Read,ACK
4.546605500000000,221,0xD3,0xFF,Read,ACK
4.546631000000000,221,0xD3,0xFC,Read,ACK
4.546656500000000,221,0xD3,0x0E,Read,ACK
4.546682000000000,221,0xD3,0x40,Read,ACK
4.546708000000000,221,0xD3,0xA9,Read,ACK
4.546733500000000,221,0xD3,0x00,Read,ACK
4.546759000000000,221,0xD3,0xA3,Read,ACK
4.546784500000000,221,0xD3,0xFE,Read,ACK
4.546810000000000,221,0xD3,0x69,Read,ACK
4.546836000000000,221,0xD3,0xFF,Read,NAK
4.647328500000000,222,0xD2,0x2D,Write,ACK
4.647382500000000,223,0xD3,0xFE,Read,ACK
4.647408000000000,223,0xD3,0x5C,Read,ACK
4.647433500000000,223,0xD3,0xF8,Read,ACK
4.647459000000000,223,0xD3,0x58,Read,ACK
4.647485000000000,223,0xD3,0xFF,Read,ACK
4.647510500000000,223,0xD3,0xC7,Read,ACK
4.647536000000000,223,0xD3,0x00,Read,ACK
4.647561500000000,223,0xD3,0x1E,Read,ACK
4.647587000000000,223,0xD3,0xFF,Read,ACK
4.647613000000000,223,0xD3,0xFB,Read,ACK
4.647638500000000,223,0xD3,0x00,Read,ACK
4.647664000000000,223,0xD3,0x08,Read,ACK
4.647689500000000,223,0xD3,0x0E,Read,ACK
4.647715500000000,223,0xD3,0x50,Read,ACK
4.647741000000000,223,0xD3,0xB3,Read,ACK
4.647766500000000,223,0xD3,0x00,Read,ACK
4.647792000000000,223,0xD3,0x97,Read,ACK
4.647818000000000,223,0xD3,0xFE,Read,ACK
4.647843500000000,223,0xD3,0x70,Read,ACK
4.647869000000000,223,0xD3,0xFF,Read,NAK
4.748361500000000,224,0xD2,0x2D,Write,ACK
4.748415500000000,225,0xD3,0xFE,Read,ACK
4.748441000000000,225,0xD3,0x4D,Read,ACK
4.748466500000000,225,0xD3,0xF8,Read,ACK
4.748492000000000,225,0xD3,0x29,Read,ACK
4.748518000000000,225,0xD3,0xFF,Read,ACK
4.748543500000000,225,0xD3,0xF6,Read,ACK
4.748569000000000,225,0xD3,0xFF,Read,ACK
4.748594500000000,225,0xD3,0xE1,Read,ACK
4.748620000000000,225,0xD3,0x00,Read,ACK
4.748646000000000,225,0xD3,0x3F,Read,ACK
4.748671500000000,225,0xD3,0x00,Read,ACK
4.748697000000000,225,0xD3,0x02,Read,ACK
4.748722500000000,225,0xD3,0x0E,Read,ACK
4.748748500000000,225,0xD3,0x10,Read,ACK
4.748774000000000,225,0xD3,0xAD,Read,ACK
4.748799500000000,225,0xD3,0x00,Read,ACK
4.748825000000000,225,0xD3,0x98,Read,ACK
4.748850500000000,225,0xD3,0xFE,Read,ACK
4.748876500000000,225,0xD3,0x65,Read,ACK
4.748902000000000,225,0xD3,0xFF,Read,NAK
4.849394500000000,226,0xD2,0x2D,Write,ACK
4.849448500000000,227,0xD3,0xFE,Read,ACK
4.849474000000000,227,0xD3,0x5E,Read,ACK
4.849500000000000,227,0xD3,0xF8,Read,ACK
4.849525500000000,227,0xD3,0x2D,Read,ACK
4.849551000000000,227,0xD3,0xFF,Read,ACK
4.849576500000000,227,0xD3,0xDA,Read,ACK
4.849602000000000,227,0xD3,0x00,Read,ACK
4.849628000000000,227,0xD3,0x20,Read,ACK
4.849653500000000,227,0xD3,0x00,Read,ACK
4.849679000000000,227,0xD3,0x0F,Read,ACK
4.849704500000000,227,0xD3,0x00,Read,ACK
4.849730500000000,227,0xD3,0x02,Read,ACK
4.849756000000000,227,0xD3,0x0E,Read,ACK
4.849781500000000,227,0xD3,0x40,Read,ACK
4.849807000000000,227,0xD3,0xB2,Read,ACK
4.849832500000000,227,0xD3,0x00,Read,ACK
4.849858500000000,227,0xD3,0x98,Read,ACK
4.849884000000000,227,0xD3,0xFE,Read,ACK
4.849909500000000,227,0xD3,0x6F,Read,ACK
4.849935000000000,227,0xD3,0xFF,Read,NAK
4.950427500000000,228,0xD2,0x2D,Write,ACK
4.950481500000000,229,0xD3,0xFE,Read,ACK
4.950507000000000,229,0xD3,0x56,Read,ACK
4.950532500000000,229,0xD3,0xF8,Read,ACK
4.950558500000000,229,0xD3,0x30,Read,ACK
4.950584000000000,229,0xD3,0xFF,Read,ACK
4.950609500000000,229,0xD3,0xD1,Read,ACK
4.950635000000000,229,0xD3,0x00,Read,ACK
4.950660500000000,229,0xD3,0x48,Read,ACK
4.950686500000000,229,0xD3,0x00,Read,ACK
4.950712000000000,229,0xD3,0x22,Read,ACK
4.950737500000000,229,0xD3,0x00,Read,ACK
4.950763000000000,229,0xD3,0x0E,Read,ACK
4.950789000000000,229,0xD3,0x0E,Read,ACK
4.950814500000000,229,0xD3,0x10,Read,ACK
4.950840000000000,229,0xD3,0xAA,Read,ACK
4.950865500000000,229,0xD3,0x00,Read,ACK
4.950891000000000,229,0xD3,0x9A,Read,ACK
4.950917000000000,229,0xD3,0xFE,Read,ACK
4.950942500000000,229,0xD3,0x6C,Read,ACK
4.950968000000000,229,0xD3,0xFF,Read,NAK
